(1616918948.997835) can0 400#00000400
(1616918948.999475) can0 300#035A0B5A230023
(1616918949.047506) can0 401#559F000000000000
(1616918949.049049) can0 300#035A0B5A230023
(1616918949.097935) can0 400#00000400
(1616918949.099633) can0 300#035A0B5A230023
(1616918949.118210) can0 201#0000000068
(1616918949.130638) can0 203#000000000000FF0F
(1616918949.142931) can0 204#0000000000000000
(1616918949.150040) can0 401#559F000000000000
(1616918949.151859) can0 300#035A0B5A230023
(1616918949.155227) can0 202#DA00000000000000
(1616918949.167483) can0 666#5207010152016226
(1616918949.179800) can0 665#0000000053175300
(1616918949.192124) can0 200#0000000000000000
(1616918949.197093) can0 100#0322020200000000
(1616918949.199281) can0 101#101B620202433937
(1616918949.199853) can0 100#300000
(1616918949.201906) can0 400#00000400
(1616918949.203364) can0 101#213237322D313030
(1616918949.203799) can0 300#035A0B5A230023
(1616918949.207475) can0 101#223230313230382D
(1616918949.211569) can0 101#23332D3531373700
(1616918949.212354) can0 100#0322020300000000
(1616918949.215681) can0 101#1017620203393833
(1616918949.216253) can0 100#300000
(1616918949.219771) can0 101#2137303130323033
(1616918949.220701) can0 201#0000000060
(1616918949.223865) can0 101#2231323230333031
(1616918949.227968) can0 101#23343631BFA60001
(1616918949.228749) can0 100#0322020400000000
(1616918949.232071) can0 101#1017620204575342
(1616918949.232643) can0 100#300000
(1616918949.233143) can0 203#000000000000FF0F
(1616918949.236165) can0 101#2143363031313135
(1616918949.240278) can0 101#223531334E000000
(1616918949.244377) can0 101#23000000BFA60001
(1616918949.245153) can0 100#0322020700000000
(1616918949.248474) can0 101#05620207B80BFAB2
(1616918949.249256) can0 100#0322020600000000
(1616918949.252113) can0 401#559F000000000000
(1616918949.252576) can0 101#05620206F508FAB2
(1616918949.254204) can0 300#035A0B5A230023
(1616918949.298275) can0 400#00000400
(1616918949.299958) can0 300#035A0B5A230023
(1616918949.323183) can0 201#0000000060
(1616918949.335610) can0 203#000000000000FF0F
(1616918949.348325) can0 401#559F000000000000
(1616918949.350625) can0 300#035A0B5A230023
(1616918949.398314) can0 400#00000400
(1616918949.399998) can0 300#035A0B5A230023
(1616918949.425676) can0 201#0000000060
(1616918949.438086) can0 203#000000000000FF0F
(1616918949.448869) can0 401#409F000000000000
(1616918949.450429) can0 300#035A0B5A230023
(1616918949.497407) can0 400#00000400
(1616918949.499595) can0 300#035A0B5A230023
(1616918949.528170) can0 201#0000000060
(1616918949.540597) can0 203#000000000000FF0F
(1616918949.547805) can0 401#409F000000000000
(1616918949.549361) can0 300#035A0B5A230023
(1616918949.597915) can0 400#01000C00
(1616918949.599599) can0 300#035A0B5A230023
(1616918949.630664) can0 201#0000000060
(1616918949.643070) can0 203#000000000000FF0F
(1616918949.649000) can0 401#409F000000000000
(1616918949.651176) can0 300#035A0B5A230023
(1616918949.697857) can0 400#01000C00
(1616918949.699574) can0 300#035A0B5A230023
(1616918949.733089) can0 201#0000000060
(1616918949.745517) can0 203#000000000000FF0F
(1616918949.747923) can0 401#409F000000000000
(1616918949.749482) can0 300#035A0B5A230023
(1616918949.797475) can0 400#01000C00
(1616918949.799553) can0 300#035A0B5A230023
(1616918949.835578) can0 201#0000000060
(1616918949.847994) can0 203#000000000000FF0F
(1616918949.848481) can0 401#429F000000000000
(1616918949.849882) can0 300#035A0B5A230023
(1616918949.897525) can0 400#01000C00
(1616918949.899308) can0 300#035A0B5A230023
(1616918949.938077) can0 201#0000000060
(1616918949.948530) can0 401#429F000000000000
(1616918949.950359) can0 300#035A0B5A230023
(1616918949.950858) can0 203#000000000000FF0F
(1616918949.997977) can0 400#01000C00
(1616918949.999747) can0 300#035A0B5A230023
(1616918950.040575) can0 201#0000000060
(1616918950.048531) can0 401#429F000000000000
(1616918950.050078) can0 300#035A0B5A230023
(1616918950.052966) can0 203#000000000000FF0F
(1616918950.097533) can0 400#01000C00
(1616918950.099708) can0 300#035A0B5A230023
(1616918950.143052) can0 201#0000000060
(1616918950.148261) can0 401#429F000000000000
(1616918950.149809) can0 300#035A0B5A230023
(1616918950.155451) can0 203#000000000000FF0F
(1616918950.167746) can0 204#0000000000000000
(1616918950.180038) can0 202#DA0D000011E00300
(1616918950.199535) can0 400#01000C00
(1616918950.201498) can0 300#035A0B5A230023
(1616918950.245548) can0 201#0000000060
(1616918950.248151) can0 401#429F000000000000
(1616918950.249987) can0 300#035A0B5A230023
(1616918950.257942) can0 203#000000000000FF0F
(1616918950.297664) can0 400#01000C00
(1616918950.299445) can0 300#035A0B5A230023
(1616918950.347936) can0 401#4D9F000000000000
(1616918950.348295) can0 201#0000000062
(1616918950.349473) can0 300#035A0B5A230023
(1616918950.360437) can0 203#000000000000FF0F
(1616918950.396805) can0 400#01000C00
(1616918950.398589) can0 300#035A0B5A230023
(1616918950.406035) can0 450#1001
(1616918950.448015) can0 451#10010000236464
(1616918950.448298) can0 450#0601
(1616918950.450445) can0 201#0000000062
(1616918950.450928) can0 402#58000000A85B0500
(1616918950.462869) can0 203#000000000000FF0F
(1616918950.496938) can0 451#0601000023
(1616918950.497245) can0 450#0801
(1616918950.499848) can0 400#01000C00
(1616918950.501834) can0 300#035A0B5A230023
(1616918950.546292) can0 451#0801000028
(1616918950.546595) can0 450#0901
(1616918950.549628) can0 401#4D9F000000000000
(1616918950.551169) can0 300#035A0B5A230023
(1616918950.552910) can0 201#0000000062
(1616918950.565360) can0 203#000000000000FF0F
(1616918950.596080) can0 451#0901000064
(1616918950.599289) can0 400#01000C00
(1616918950.600990) can0 300#035A0B5A230023
(1616918950.606181) can0 454#035A0B5A230023
(1616918950.648064) can0 401#4D9F000000000000
(1616918950.649598) can0 300#035A0B5A230023
(1616918950.655421) can0 201#0000000062
(1616918950.656172) can0 454#035A0B5A230023
(1616918950.667835) can0 203#000000000000FF0F
(1616918950.698840) can0 400#01000C00
(1616918950.701161) can0 300#035A0B5A230023
(1616918950.706160) can0 454#035A0B5A230023
(1616918950.748013) can0 401#4D9F000000000000
(1616918950.749563) can0 300#035A0B5A230023
(1616918950.756152) can0 454#035A0B5A230023
(1616918950.757895) can0 201#0000000062
(1616918950.770334) can0 203#000000000000FF0F
(1616918950.797885) can0 400#01000C00
(1616918950.799594) can0 300#035A0B5A230023
(1616918950.806142) can0 454#035A0B5A230023
(1616918950.846839) can0 401#4B9F000000000000
(1616918950.848403) can0 300#035A0B5A230023
(1616918950.856153) can0 454#035A0B5A230023
(1616918950.860392) can0 201#0000000062
(1616918950.872801) can0 203#000000000000FF0F
(1616918950.897754) can0 400#01000C00
(1616918950.899466) can0 300#035A0B5A230023
(1616918950.906129) can0 454#035A0B5A230023
(1616918950.947878) can0 401#4B9F000000000000
(1616918950.949439) can0 300#035A0B5A230023
(1616918950.956117) can0 454#035A0B5A230023
(1616918950.956395) can0 450#1001
(1616918950.962870) can0 201#0000000062
(1616918950.975311) can0 203#000000000000FF0F
(1616918950.996722) can0 451#10010000236464
(1616918950.997022) can0 450#0601
(1616918950.999931) can0 400#01000C00
(1616918951.001644) can0 300#035A0B5A230023
(1616918951.006115) can0 454#035A0B5A230023
(1616918951.045945) can0 451#0601000023
(1616918951.046255) can0 450#0801
(1616918951.049228) can0 401#4B9F000000000000
(1616918951.050773) can0 300#035A0B5A230023
(1616918951.056103) can0 454#035A0B5A230023
(1616918951.065371) can0 201#0000000062
(1616918951.077787) can0 203#000000000000FF0F
(1616918951.096621) can0 451#0801000028
(1616918951.096924) can0 450#0901
(1616918951.099612) can0 400#01000C00
(1616918951.101600) can0 300#035A0B5A230023
(1616918951.106097) can0 454#035A0B5A230023
(1616918951.146231) can0 451#0901000064
(1616918951.149629) can0 401#4B9F000000000000
(1616918951.151195) can0 300#035A0B5A230023
(1616918951.156088) can0 454#035A0B5A230023
(1616918951.167848) can0 201#0000000062
(1616918951.180277) can0 203#000000000000FF0F
(1616918951.192573) can0 204#0000000000000000
(1616918951.198079) can0 400#01000C00
(1616918951.199781) can0 300#035A0B5A230023
(1616918951.204853) can0 202#DA0D000011E00300
(1616918951.206078) can0 454#035A0B5A230023
(1616918951.249515) can0 401#4B9F000000000000
(1616918951.251341) can0 300#035A0B5A230023
(1616918951.256070) can0 454#035A0B5A230023
(1616918951.270337) can0 201#0000000062
(1616918951.282760) can0 203#000000000000FF0F
(1616918951.297637) can0 400#01000C00
(1616918951.299628) can0 300#035A0B5A230023
(1616918951.306065) can0 454#035A0B5A230023
(1616918951.346637) can0 401#489F000000000000
(1616918951.348592) can0 300#035A0B5A230023
(1616918951.356058) can0 454#035A0B5A230023
(1616918951.372822) can0 201#0000000062
(1616918951.385255) can0 203#000000000000FF0F
(1616918951.397855) can0 400#01000C00
(1616918951.399566) can0 300#035A0B5A230023
(1616918951.406050) can0 454#035A0B5A230023
(1616918951.447590) can0 401#489F000000000000
(1616918951.449898) can0 300#035A0B5A230023
(1616918951.456048) can0 454#035A0B5A230023
(1616918951.475322) can0 201#0000000062
(1616918951.487736) can0 203#000000000000FF0F
(1616918951.499105) can0 400#01000C00
(1616918951.500800) can0 300#035A0B5A230023
(1616918951.506037) can0 454#035A0B5A230023
(1616918951.506312) can0 450#1001
(1616918951.546915) can0 451#10010000236464
(1616918951.547214) can0 450#0601
(1616918951.549842) can0 401#489F000000000000
(1616918951.551680) can0 300#035A0B5A230023
(1616918951.556023) can0 454#035A0B5A230023
(1616918951.577810) can0 201#0000000062
(1616918951.590221) can0 203#000000000000FF0F
(1616918951.596312) can0 451#0601000023
(1616918951.596620) can0 450#0801
(1616918951.599627) can0 400#01000C00
(1616918951.601341) can0 300#035A0B5A230023
(1616918951.606018) can0 454#035A0B5A230023
(1616918951.645968) can0 451#0801000028
(1616918951.646271) can0 450#0901
(1616918951.649241) can0 401#489F000000000000
(1616918951.650786) can0 300#035A0B5A230023
(1616918951.656009) can0 454#035A0B5A230023
(1616918951.680304) can0 201#0000000062
(1616918951.692708) can0 203#000000000000FF0F
(1616918951.696611) can0 451#0901000064
(1616918951.699538) can0 400#01000C00
(1616918951.702005) can0 300#035A0B5A230023
(1616918951.705998) can0 454#035A0B5A280023
(1616918951.748773) can0 401#469F000000000000
(1616918951.750944) can0 300#035A0B5A230023
(1616918951.755991) can0 454#035A0B5A280023
(1616918951.782788) can0 201#0000000062
(1616918951.795205) can0 203#000000000000FF0F
(1616918951.797933) can0 400#01000C00
(1616918951.799645) can0 300#035A0B5A280023
(1616918951.805979) can0 454#035A0B5A280023
(1616918951.848234) can0 401#469F000000000000
(1616918951.849781) can0 300#035A0B5A280064
(1616918951.855980) can0 454#035A0B5A280064
(1616918951.885268) can0 201#0000000062
(1616918951.897480) can0 400#01000C00
(1616918951.897975) can0 203#000000000000FF0F
(1616918951.899475) can0 300#035A0B5A280064
(1616918951.905967) can0 454#035A0B5A280064
(1616918951.947611) can0 403#5C000000D40D0600
(1616918951.955958) can0 454#035A0B5A280064
(1616918951.987748) can0 201#0000000062
(1616918951.997728) can0 400#01000C00
(1616918951.999427) can0 300#035A0B5A280064
(1616918952.000174) can0 203#000000000000FF0F
(1616918952.005946) can0 454#035A0B5A280064
(1616918952.047829) can0 401#469F000000000000
(1616918952.049674) can0 300#035A0B5A280064
(1616918952.055937) can0 454#035A0B5A280064
(1616918952.056216) can0 450#1001
(1616918952.090257) can0 201#0000000062
(1616918952.095970) can0 451#10010000236464
(1616918952.096271) can0 450#0601
(1616918952.099111) can0 400#01000C00
(1616918952.100808) can0 300#035A0B5A280064
(1616918952.102605) can0 203#0000000000000E00
(1616918952.105937) can0 454#035A0B5A280064
(1616918952.146422) can0 451#0601000023
(1616918952.146732) can0 450#0801
(1616918952.149513) can0 401#469F000000000000
(1616918952.151357) can0 300#035A0B5A280064
(1616918952.155928) can0 454#035A0B5A280064
(1616918952.192688) can0 201#0000000062
(1616918952.196277) can0 451#0801000028
(1616918952.196581) can0 450#0901
(1616918952.199661) can0 400#01000C00
(1616918952.201374) can0 300#035A0B5A280064
(1616918952.205104) can0 203#0000000000000E00
(1616918952.205915) can0 454#035A0B5A280064
(1616918952.217394) can0 204#0000000000000000
(1616918952.229678) can0 202#DA0D000011E00300
(1616918952.241935) can0 666#5207010152016226
(1616918952.245790) can0 451#0901000064
(1616918952.249404) can0 401#479F000000000000
(1616918952.250978) can0 300#035A0B5A280064
(1616918952.254267) can0 665#0000000053175300
(1616918952.255911) can0 454#035A0B5A280064
(1616918952.266573) can0 200#5800A85B05000100
(1616918952.295182) can0 201#0000000062
(1616918952.298647) can0 400#01000C00
(1616918952.300345) can0 300#035A0B5A280064
(1616918952.305902) can0 454#035A0B5A280064
(1616918952.307582) can0 203#0000000000000E00
(1616918952.347483) can0 401#479F000000000000
(1616918952.349333) can0 300#035A0B5A280064
(1616918952.355900) can0 454#035A0B5A280064
(1616918952.397509) can0 400#01000C00
(1616918952.397866) can0 201#0000000062
(1616918952.399192) can0 300#035A0B5A280064
(1616918952.405887) can0 454#035A0B5A280064
(1616918952.410076) can0 203#0000000000000E00
(1616918952.447761) can0 401#479F000000000000
(1616918952.449320) can0 300#035A0B5A280064
(1616918952.455879) can0 454#035A0B5A280064
(1616918952.497359) can0 400#01000C00
(1616918952.499813) can0 300#035A0B5A280064
(1616918952.500188) can0 201#0000000062
(1616918952.505875) can0 454#035A0B5A280064
(1616918952.512492) can0 203#0000000000000E00
(1616918952.549011) can0 401#479F000000000000
(1616918952.550581) can0 300#035A0B5A280064
(1616918952.555863) can0 454#035A0B5A280064
(1616918952.598028) can0 400#01000C00
(1616918952.599701) can0 300#035A0B5A280064
(1616918952.602567) can0 201#0000000062
(1616918952.605858) can0 454#035A0B5A280064
(1616918952.606136) can0 450#1001
(1616918952.615005) can0 203#0000000000000E00
(1616918952.646089) can0 451#10010000236464
(1616918952.646388) can0 450#0601
(1616918952.649498) can0 401#479F000000000000
(1616918952.651071) can0 300#035A0B5A280064
(1616918952.655855) can0 454#035A0B5A280064
(1616918952.695925) can0 451#0601000023
(1616918952.696234) can0 450#0801
(1616918952.699097) can0 400#01000C00
(1616918952.700784) can0 300#035A0B5A280064
(1616918952.705055) can0 201#0000000062
(1616918952.705840) can0 454#035A0B5A280064
(1616918952.717484) can0 203#0000000000000E00
(1616918952.745643) can0 451#0801000028
(1616918952.745945) can0 450#0901
(1616918952.748742) can0 401#449F000000000000
(1616918952.750308) can0 300#035A0B5A280064
(1616918952.755835) can0 454#035A0B5A280064
(1616918952.797428) can0 451#0901000064
(1616918952.800927) can0 400#01000C00
(1616918952.802612) can0 300#035A0B5A280064
(1616918952.805822) can0 454#035A0B5A280064
(1616918952.807441) can0 201#0000000062
(1616918952.819877) can0 203#0000000000000E00
(1616918952.847789) can0 401#449F000000000000
(1616918952.849340) can0 300#035A0B5A280064
(1616918952.855822) can0 454#035A0B5A280064
(1616918952.897613) can0 400#01000C00
(1616918952.899311) can0 300#035A0B5A280064
(1616918952.905827) can0 454#035A0B5A280064
(1616918952.909942) can0 201#0000000062
(1616918952.922362) can0 203#0000000000000E00
(1616918952.947400) can0 401#449F000000000000
(1616918952.949241) can0 300#035A0B5A280064
(1616918952.955803) can0 454#035A0B5A280064
(1616918952.997546) can0 400#01000C00
(1616918952.999245) can0 300#035A0B5A280064
(1616918953.005818) can0 454#035A0B5A280064
(1616918953.012420) can0 201#0000000062
(1616918953.024861) can0 203#0000000000000E00
(1616918953.047712) can0 401#449F000000000000
(1616918953.049274) can0 300#035A0B5A280064
(1616918953.055795) can0 454#035A0B5A280064
(1616918953.097598) can0 400#01000C00
(1616918953.099593) can0 300#035A0B5A280064
(1616918953.105782) can0 454#035A0B5A280064
(1616918953.114921) can0 201#0000000062
(1616918953.127333) can0 203#0000000000000E00
(1616918953.147415) can0 401#449F000000000000
(1616918953.148968) can0 300#035A0B5A280064
(1616918953.155776) can0 454#035A0B5A280064
(1616918953.156050) can0 450#1001
(1616918953.196580) can0 451#10010000236464
(1616918953.196878) can0 450#0601
(1616918953.199396) can0 400#01000C00
(1616918953.201381) can0 300#035A0B5A280064
(1616918953.205768) can0 454#035A0B5A280064
(1616918953.217396) can0 201#0000000062
(1616918953.229820) can0 203#0000000000000E00
(1616918953.242120) can0 204#0000000000000000
(1616918953.245220) can0 451#0601000023
(1616918953.245531) can0 450#0801
(1616918953.248317) can0 401#489F000000000000
(1616918953.250282) can0 300#035A0B5A280064
(1616918953.254404) can0 202#DA0D000011E00300
(1616918953.255757) can0 454#035A0B5A64000E
(1616918953.295909) can0 451#0801000028
(1616918953.296210) can0 450#0901
(1616918953.299625) can0 400#01000C00
(1616918953.301336) can0 300#035A0B5A280064
(1616918953.305750) can0 454#035A0B5A64000E
(1616918953.319895) can0 201#0000000062
(1616918953.332305) can0 203#0000000000000E00
(1616918953.347757) can0 451#0901000064
(1616918953.350953) can0 401#489F000000000000
(1616918953.352878) can0 300#035A0B5A64000E
(1616918953.355744) can0 454#035A0B5A64000E
(1616918953.397787) can0 400#01000C00
(1616918953.399777) can0 300#035A0B5A640064
(1616918953.405741) can0 454#035A0B5A640064
(1616918953.422370) can0 201#0000000062
(1616918953.434810) can0 203#0000000000000E00
(1616918953.447590) can0 402#58000000A85B0500
(1616918953.455737) can0 454#035A0B5A640064
(1616918953.497615) can0 400#01000C00
(1616918953.499319) can0 300#035A0B5A640064
(1616918953.505727) can0 454#035A0B5A640064
(1616918953.524872) can0 201#0000000062
(1616918953.537284) can0 203#0000000000000E00
(1616918953.547390) can0 401#489F000000000000
(1616918953.549700) can0 300#035A0B5A640064
(1616918953.555713) can0 454#035A0B5A640064
(1616918953.598899) can0 400#01000C00
(1616918953.600605) can0 300#035A0B5A640064
(1616918953.605711) can0 454#035A0B5A640064
(1616918953.627351) can0 201#0000000062
(1616918953.639783) can0 203#0000000000000E00
(1616918953.648021) can0 401#469F000000000000
(1616918953.649567) can0 300#035A0B5A640064
(1616918953.655704) can0 454#035A0B5A640064
(1616918953.696610) can0 400#01000C00
(1616918953.698381) can0 300#035A0B5A640064
(1616918953.705697) can0 454#035A0B5A640064
(1616918953.705985) can0 450#1001
(1616918953.729798) can0 201#0000000062
(1616918953.742207) can0 203#0000000000000E00
(1616918953.745752) can0 451#10010000236464
(1616918953.746050) can0 450#0601
(1616918953.749069) can0 401#469F000000000000
(1616918953.750713) can0 300#035A0B5A640064
(1616918953.755689) can0 454#035A0B5A640064
(1616918953.796436) can0 451#0601000023
(1616918953.796741) can0 450#0801
(1616918953.799320) can0 400#01000C00
(1616918953.801781) can0 300#035A0B5A640064
(1616918953.805675) can0 454#035A0B5A640064
(1616918953.832238) can0 201#0000000062
(1616918953.844657) can0 203#0000000000000E00
(1616918953.847091) can0 451#0801000028
(1616918953.847397) can0 450#0901
(1616918953.850935) can0 401#469F000000000000
(1616918953.852555) can0 300#035A0B5A640064
(1616918953.855680) can0 454#035A0B5A640064
(1616918953.896181) can0 451#0901000064
(1616918953.899383) can0 400#01000C00
(1616918953.901098) can0 300#035A0B5A640064
(1616918953.905667) can0 454#035A0B5A640064
(1616918953.934736) can0 201#0000000062
(1616918953.947129) can0 203#0000000000000E00
(1616918953.947628) can0 401#469F000000000000
(1616918953.949170) can0 300#035A0B5A640064
(1616918953.955658) can0 454#035A0B5A640064
(1616918953.997445) can0 400#01000C00
(1616918953.999425) can0 300#035A0B5A640064
(1616918954.005649) can0 454#035A0B5A640064
(1616918954.037213) can0 201#0000000062
(1616918954.047473) can0 401#469F000000000000
(1616918954.049016) can0 300#035A0B5A640064
(1616918954.049633) can0 203#0000000000000E00
(1616918954.055639) can0 454#035A0B5A640064
(1616918954.097693) can0 400#01000C00
(1616918954.099403) can0 300#035A0B5A640064
(1616918954.105636) can0 454#035A0B5A640064
(1616918954.139713) can0 201#0000000062
(1616918954.147686) can0 401#489F000000000000
(1616918954.149632) can0 300#035A0B5A640064
(1616918954.152114) can0 203#0000000000000E00
(1616918954.155627) can0 454#035A0B5A640064
(1616918954.196419) can0 400#01000C00
(1616918954.198416) can0 300#035A0B5A640064
(1616918954.205621) can0 454#035A0B5A640064
(1616918954.242081) can0 201#0000000062
(1616918954.247712) can0 401#489F000000000000
(1616918954.249372) can0 300#035A0B5A640064
(1616918954.254225) can0 203#0000000000000E00
(1616918954.255615) can0 454#035A0B5A640064
(1616918954.255895) can0 450#1001
(1616918954.266190) can0 204#0000000000000000
(1616918954.278174) can0 202#DA0D000011E00300
(1616918954.296164) can0 451#10010000236464
(1616918954.296464) can0 450#0601
(1616918954.299587) can0 400#01000C00
(1616918954.301304) can0 300#035A0B5A640064
(1616918954.305602) can0 454#035A0B5A640064
(1616918954.342067) can0 201#0000000062
(1616918954.345615) can0 451#0601000023
(1616918954.345925) can0 450#0801
(1616918954.349555) can0 401#489F000000000000
(1616918954.351194) can0 300#035A0B5A640064
(1616918954.354186) can0 203#0000000000000E00
(1616918954.355602) can0 454#035A0B5A640064
(1616918954.397974) can0 451#0801000028
(1616918954.398273) can0 450#0901
(1616918954.401168) can0 400#01000C00
(1616918954.402881) can0 300#035A0B5A640064
(1616918954.405593) can0 454#035A0B5A640064
(1616918954.442109) can0 201#0000000062
(1616918954.445880) can0 451#0901000064
(1616918954.449334) can0 401#489F000000000000
(1616918954.450972) can0 300#035A0B5A640064
(1616918954.454231) can0 203#0000000000000E00
(1616918954.455583) can0 454#035A0B5A640064
(1616918954.497511) can0 400#01000C00
(1616918954.499260) can0 300#035A0B5A640064
(1616918954.505574) can0 454#035A0B5A640064
(1616918954.542096) can0 201#0000000062
(1616918954.547597) can0 401#489F000000000000
(1616918954.549248) can0 300#035A0B5A640064
(1616918954.554223) can0 203#0000000000000E00
(1616918954.555567) can0 454#035A0B5A640064
(1616918954.597388) can0 400#01000C00
(1616918954.599900) can0 300#035A0B5A640064
(1616918954.605563) can0 454#035A0B5A640064
(1616918954.642089) can0 201#0000000062
(1616918954.647742) can0 401#489F000000000000
(1616918954.649409) can0 300#035A0B5A640064
(1616918954.654228) can0 203#0000000000000E00
(1616918954.655556) can0 454#035A0B5A640064
(1616918954.698080) can0 400#01000C00
(1616918954.699765) can0 300#035A0B5A640064
(1616918954.705548) can0 454#035A0B5A640064
(1616918954.742074) can0 201#0000000062
(1616918954.747342) can0 401#489F000000000000
(1616918954.749421) can0 300#035A0B5A640064
(1616918954.754214) can0 203#0000000000000E00
(1616918954.755541) can0 454#035A0B5A640064
(1616918954.797384) can0 400#01000C00
(1616918954.799097) can0 300#035A0B5A640064
(1616918954.805533) can0 454#035A0B5A640064
(1616918954.805811) can0 450#1001
(1616918954.842067) can0 201#0000000062
(1616918954.846388) can0 451#10010000236464
(1616918954.846690) can0 450#0601
(1616918954.849501) can0 401#489F000000000000
(1616918954.851902) can0 300#035A0B5A640064
(1616918954.854202) can0 203#0000000000000E00
(1616918954.855524) can0 454#035A0B5A640064
(1616918954.897189) can0 451#0601000023
(1616918954.897498) can0 450#0801
(1616918954.900808) can0 400#01000C00
(1616918954.902508) can0 300#035A0B5A640064
(1616918954.905519) can0 454#035A0B5A640064
(1616918954.942035) can0 201#0000000062
(1616918954.945991) can0 451#0801000028
(1616918954.946297) can0 450#0901
(1616918954.949453) can0 403#5C000000D40D0600
(1616918954.954191) can0 203#0000000000000E00
(1616918954.955509) can0 454#035A0B5A640064
(1616918954.996173) can0 451#0901000064
(1616918954.999186) can0 400#01000C00
(1616918955.001290) can0 300#035A0B5A640064
(1616918955.005510) can0 454#035A0B5A640064
(1616918955.042023) can0 201#0000000062
(1616918955.047324) can0 401#489F000000000000
(1616918955.049271) can0 300#035A0B5A640064
(1616918955.054179) can0 203#0000000000000E00
(1616918955.055501) can0 454#035A0B5A640064
(1616918955.097388) can0 400#01000C00
(1616918955.099087) can0 300#035A0B5A640064
(1616918955.105488) can0 454#035A0B5A28000C
(1616918955.142015) can0 201#0000000062
(1616918955.146853) can0 401#449F000000000000
(1616918955.148529) can0 300#035A0B5A28000C
(1616918955.154163) can0 203#0000000000000E00
(1616918955.155479) can0 454#035A0B5A28000C
(1616918955.198013) can0 400#01000C00
(1616918955.200048) can0 300#035A0B5A280064
(1616918955.205474) can0 454#035A0B5A280064
(1616918955.242004) can0 201#0000000062
(1616918955.247415) can0 401#449F000000000000
(1616918955.248975) can0 300#035A0B5A280064
(1616918955.254158) can0 203#0000000000000E00
(1616918955.255464) can0 454#035A0B5A280064
(1616918955.266130) can0 204#0000000000000000
(1616918955.278119) can0 202#DA0D000011E00300
(1616918955.290058) can0 666#5207010152016226
(1616918955.297709) can0 400#01000C00
(1616918955.299416) can0 300#035A0B5A280064
(1616918955.302094) can0 665#0000000053175300
(1616918955.305456) can0 454#035A0B5A280064
(1616918955.314107) can0 200#5800A85B05000200
(1616918955.341995) can0 201#0000000062
(1616918955.347533) can0 401#449F000000000000
(1616918955.349568) can0 300#035A0B5A280064
(1616918955.354203) can0 203#0000000000000E00
(1616918955.355448) can0 454#035A0B5A280064
(1616918955.355729) can0 450#1001
(1616918955.395734) can0 451#10010000236464
(1616918955.396032) can0 450#0601
(1616918955.399373) can0 400#01000C00
(1616918955.401084) can0 300#035A0B5A280064
(1616918955.405442) can0 454#035A0B5A280064
(1616918955.442034) can0 201#0000000062
(1616918955.447743) can0 451#0601000023
(1616918955.448050) can0 450#0801
(1616918955.451180) can0 401#449F000000000000
(1616918955.452732) can0 300#035A0B5A280064
(1616918955.454206) can0 203#0000000000000E00
(1616918955.455440) can0 454#035A0B5A280064
(1616918955.495907) can0 451#0801000028
(1616918955.496209) can0 450#0901
(1616918955.499192) can0 400#01000C00
(1616918955.500906) can0 300#035A0B5A280064
(1616918955.505431) can0 454#035A0B5A280064
(1616918955.542027) can0 201#0000000062
(1616918955.545616) can0 451#0901000064
(1616918955.549283) can0 401#449F000000000000
(1616918955.550845) can0 300#035A0B5A280064
(1616918955.554163) can0 203#0000000000000E00
(1616918955.555420) can0 454#035A0B5A280064
(1616918955.597488) can0 400#01000C00
(1616918955.599237) can0 300#035A0B5A280064
(1616918955.605417) can0 454#035A0B5A280064
(1616918955.642008) can0 201#0000000062
(1616918955.646702) can0 401#449F000000000000
(1616918955.648263) can0 300#035A0B5A280064
(1616918955.654163) can0 203#0000000000000E00
(1616918955.655401) can0 454#035A0B5A280064
(1616918955.698802) can0 400#01000C00
(1616918955.700507) can0 300#035A0B5A280064
(1616918955.705401) can0 454#035A0B5A280064
(1616918955.742006) can0 201#0000000062
(1616918955.748043) can0 401#449F000000000000
(1616918955.749667) can0 300#035A0B5A280064
(1616918955.754146) can0 203#0000000000000E00
(1616918955.755390) can0 454#035A0B5A280064
(1616918955.797173) can0 400#01000C00
(1616918955.799364) can0 300#035A0B5A280064
(1616918955.805383) can0 454#035A0B5A280064
(1616918955.841991) can0 201#0000000062
(1616918955.847446) can0 401#449F000000000000
(1616918955.849088) can0 300#035A0B5A280064
(1616918955.854120) can0 203#0000000000000E00
(1616918955.855382) can0 454#035A0B5A280064
(1616918955.897550) can0 400#01000C00
(1616918955.899340) can0 300#035A0B5A280064
(1616918955.905370) can0 454#035A0B5A280064
(1616918955.905645) can0 450#1001
(1616918955.941989) can0 201#0000000062
(1616918955.947183) can0 451#10010000236464
(1616918955.947485) can0 450#0601
(1616918955.950916) can0 401#449F000000000000
(1616918955.952468) can0 300#035A0B5A280064
(1616918955.954100) can0 203#0000000000000E00
(1616918955.955358) can0 454#035A0B5A280064
(1616918955.995960) can0 451#0601000023
(1616918955.996268) can0 450#0801
(1616918955.999248) can0 400#01000C00
(1616918956.000959) can0 300#035A0B5A280064
(1616918956.005355) can0 454#035A0B5A280064
(1616918956.041965) can0 201#0000000062
(1616918956.046195) can0 451#0801000028
(1616918956.046486) can0 450#0901
(1616918956.049340) can0 401#469F000000000000
(1616918956.051297) can0 300#035A0B5A280064
(1616918956.054095) can0 203#0000000000000E00
(1616918956.055347) can0 454#035A0B5A280064
(1616918956.095060) can0 451#0901000064
(1616918956.098027) can0 400#01000C00
(1616918956.100064) can0 300#035A0B5A280064
(1616918956.105342) can0 454#035A0B5A280064
(1616918956.141967) can0 201#0000000062
(1616918956.147642) can0 401#469F000000000000
(1616918956.149182) can0 300#035A0B5A280064
(1616918956.154077) can0 203#0000000000000E00
(1616918956.155333) can0 454#035A0B5A280064
(1616918956.197404) can0 400#01000C00
(1616918956.199120) can0 300#035A0B5A280064
(1616918956.205331) can0 454#035A0B5A280064
(1616918956.241943) can0 201#0000000062
(1616918956.247813) can0 401#469F000000000000
(1616918956.249645) can0 300#035A0B5A280064
(1616918956.254075) can0 203#0000000000000E00
(1616918956.255323) can0 454#035A0B5A280064
(1616918956.266071) can0 204#0000000000000000
(1616918956.278043) can0 202#DA0D000011E00300
(1616918956.297164) can0 400#01000C00
(1616918956.298903) can0 300#035A0B5A280064
(1616918956.305313) can0 454#035A0B5A280064
(1616918956.341942) can0 201#0000000062
(1616918956.347804) can0 401#469F000000000000
(1616918956.349357) can0 300#035A0B5A280064
(1616918956.354057) can0 203#0000000000000E00
(1616918956.355307) can0 454#035A0B5A280064
(1616918956.397069) can0 400#01000C00
(1616918956.398768) can0 300#035A0B5A280064
(1616918956.405301) can0 454#035A0B5A280064
(1616918956.441923) can0 201#0000000062
(1616918956.447860) can0 402#58000000A85B0500
(1616918956.454054) can0 203#0000000000000E00
(1616918956.455292) can0 454#035A0B5A280064
(1616918956.455568) can0 450#1001
(1616918956.497779) can0 451#10010000236464
(1616918956.498073) can0 450#0601
(1616918956.500627) can0 400#01000C00
(1616918956.502620) can0 300#035A0B5A280064
(1616918956.505285) can0 454#035A0B5A280064
(1616918956.541925) can0 201#0000000062
(1616918956.545898) can0 451#0601000023
(1616918956.546206) can0 450#0801
(1616918956.549371) can0 401#489F000000000000
(1616918956.550974) can0 300#035A0B5A280064
(1616918956.554039) can0 203#0000000000000E00
(1616918956.555278) can0 454#035A0B5A280064
(1616918956.594880) can0 451#0801000028
(1616918956.595182) can0 450#0901
(1616918956.598204) can0 400#01000C00
(1616918956.599917) can0 300#035A0B5A280064
(1616918956.605276) can0 454#035A0B5A280064
(1616918956.641904) can0 201#0000000062
(1616918956.646070) can0 451#0901000064
(1616918956.649259) can0 401#489F000000000000
(1616918956.651271) can0 300#035A0B5A280064
(1616918956.654033) can0 203#0000000000000E00
(1616918956.655272) can0 454#035A0B5A280064
(1616918956.697131) can0 400#01000C00
(1616918956.699603) can0 300#035A0B5A280064
(1616918956.705262) can0 454#035A0B5A280064
(1616918956.741907) can0 201#0000000062
(1616918956.748957) can0 401#489F000000000000
(1616918956.750585) can0 300#035A0B5A280064
(1616918956.754012) can0 203#0000000000000E00
(1616918956.755254) can0 454#035A0B5A280064
(1616918956.797773) can0 400#01000C00
(1616918956.799480) can0 300#035A0B5A280064
(1616918956.805244) can0 454#035A0B5A280064
(1616918956.841881) can0 201#0000000062
(1616918956.847375) can0 401#489F000000000000
(1616918956.849377) can0 300#035A0B5A280064
(1616918956.854026) can0 203#0000000000000E00
(1616918956.855243) can0 454#035A0B5A280064
(1616918956.897138) can0 400#01000C00
(1616918956.898845) can0 300#035A0B5A280064
(1616918956.905232) can0 454#035A0B5A280064
(1616918956.941883) can0 201#0000000062
(1616918956.947723) can0 401#489F000000000000
(1616918956.949329) can0 300#035A0B5A280064
(1616918956.953990) can0 203#0000000000000E00
(1616918956.955227) can0 454#035A0B5A280064
(1616918956.998318) can0 400#01000C00
(1616918957.000654) can0 300#035A0B5A280064
(1616918957.005220) can0 454#035A0B5A23000C
(1616918957.005495) can0 450#1001
(1616918957.041858) can0 201#0000000062
(1616918957.046102) can0 451#10010000236464
(1616918957.046404) can0 450#0601
(1616918957.049421) can0 401#479F000000000000
(1616918957.051039) can0 300#035A0B5A280064
(1616918957.053989) can0 203#0000000000000E00
(1616918957.055211) can0 454#035A0B5A23000C
(1616918957.096083) can0 451#0601000023
(1616918957.096388) can0 450#0801
(1616918957.099000) can0 400#01000C00
(1616918957.100707) can0 300#035A0B5A23000C
(1616918957.105203) can0 454#035A0B5A23000C
(1616918957.141856) can0 201#0000000062
(1616918957.146329) can0 451#0801000028
(1616918957.146632) can0 450#0901
(1616918957.149774) can0 401#479F000000000000
(1616918957.151320) can0 300#035A0B5A230023
(1616918957.153971) can0 203#0000000000000E00
(1616918957.155200) can0 454#035A0B5A230023
(1616918957.195595) can0 451#0901000064
(1616918957.198924) can0 400#01000C00
(1616918957.200635) can0 300#035A0B5A230023
(1616918957.205195) can0 454#035A0B5A230023
(1616918957.241841) can0 201#0000000062
(1616918957.247607) can0 401#479F000000000000
(1616918957.249189) can0 300#035A0B5A230023
(1616918957.253970) can0 203#0000000000000E00
(1616918957.255193) can0 454#035A0B5A230023
(1616918957.265932) can0 204#0000000000000000
(1616918957.277938) can0 202#DA0D000011E00300
(1616918957.297561) can0 400#01000C00
(1616918957.299554) can0 300#035A0B5A230023
(1616918957.305177) can0 454#035A0B5A230023
(1616918957.341836) can0 201#0000000062
(1616918957.347341) can0 401#479F000000000000
(1616918957.348896) can0 300#035A0B5A230023
(1616918957.353950) can0 203#0000000000000E00
(1616918957.355178) can0 454#035A0B5A230023
(1616918957.397492) can0 400#01000C00
(1616918957.399205) can0 300#035A0B5A230023
(1616918957.405165) can0 454#035A0B5A230023
(1616918957.441818) can0 201#0000000062
(1616918957.447289) can0 401#479F000000000000
(1616918957.449286) can0 300#035A0B5A230023
(1616918957.453951) can0 203#0000000000000E00
(1616918957.455168) can0 454#035A0B5A230023
(1616918957.497153) can0 400#01000C00
(1616918957.498854) can0 300#035A0B5A230023
(1616918957.505155) can0 454#035A0B5A230023
(1616918957.541815) can0 201#0000000062
(1616918957.548399) can0 401#479F000000000000
(1616918957.549959) can0 300#035A0B5A230023
(1616918957.553924) can0 203#0000000000000E00
(1616918957.555146) can0 454#035A0B5A230023
(1616918957.555424) can0 450#1001
(1616918957.595932) can0 451#10010000236464
(1616918957.596231) can0 450#0601
(1616918957.599062) can0 400#01000C00
(1616918957.600761) can0 300#035A0B5A230023
(1616918957.605142) can0 454#035A0B5A230023
(1616918957.641796) can0 201#0000000062
(1616918957.645600) can0 451#0601000023
(1616918957.645911) can0 450#0801
(1616918957.649088) can0 401#479F000000000000
(1616918957.650738) can0 300#035A0B5A230023
(1616918957.653925) can0 203#0000000000000E00
(1616918957.655147) can0 454#035A0B5A230023
(1616918957.696074) can0 451#0801000028
(1616918957.696376) can0 450#0901
(1616918957.698990) can0 400#01000C00
(1616918957.700702) can0 300#035A0B5A230023
(1616918957.705126) can0 454#035A0B5A230023
(1616918957.741797) can0 201#0000000062
(1616918957.745858) can0 451#0901000064
(1616918957.749723) can0 401#479F000000000000
(1616918957.751280) can0 300#035A0B5A230023
(1616918957.753910) can0 203#0000000000000E00
(1616918957.755116) can0 454#035A0B5A230023
(1616918957.798647) can0 400#01000C00
(1616918957.800338) can0 300#035A0B5A230023
(1616918957.805110) can0 454#035A0B5A230023
(1616918957.841777) can0 201#0000000062
(1616918957.847965) can0 401#479F000000000000
(1616918957.849553) can0 300#035A0B5A230023
(1616918957.853907) can0 203#0000000000000E00
(1616918957.855109) can0 454#035A0B5A230023
(1616918957.897078) can0 400#01000C00
(1616918957.899182) can0 300#035A0B5A230023
(1616918957.905099) can0 454#035A0B5A230023
(1616918957.941772) can0 201#0000000062
(1616918957.947329) can0 403#5C000000D40D0600
(1616918957.953891) can0 203#0000000000000E00
(1616918957.955093) can0 454#035A0B5A230023
(1616918957.996732) can0 400#01000C00
(1616918957.998440) can0 300#035A0B5A230023
(1616918958.005084) can0 454#035A0B5A230023
(1616918958.041754) can0 201#0000000062
(1616918958.048514) can0 401#489F000000000000
(1616918958.050740) can0 300#035A0B5A230023
(1616918958.053889) can0 203#0000000000000E00
(1616918958.055075) can0 454#035A0B5A230023
(1616918958.097462) can0 400#01000C00
(1616918958.099169) can0 300#035A0B5A230023
(1616918958.105073) can0 454#035A0B5A230023
(1616918958.105347) can0 450#1001
(1616918958.141756) can0 201#0000000062
(1616918958.146208) can0 451#10010000236464
(1616918958.146512) can0 450#0601
(1616918958.149214) can0 401#489F000000000000
(1616918958.151261) can0 300#035A0B5A230023
(1616918958.153868) can0 203#0000000000000E00
(1616918958.155066) can0 454#035A0B5A230023
(1616918958.195813) can0 451#0601000023
(1616918958.196118) can0 450#0801
(1616918958.199009) can0 400#01000C00
(1616918958.200715) can0 300#035A0B5A230023
(1616918958.205060) can0 454#035A0B5A230023
(1616918958.241737) can0 201#0000000062
(1616918958.245637) can0 451#0801000028
(1616918958.245945) can0 450#0901
(1616918958.249102) can0 401#489F000000000000
(1616918958.250710) can0 300#035A0B5A230023
(1616918958.253857) can0 203#0000000000000E00
(1616918958.255059) can0 454#035A0B5A230023
(1616918958.265838) can0 204#0000000000000000
(1616918958.277843) can0 202#DA0D000011E00300
(1616918958.289810) can0 666#5207010152016226
(1616918958.296042) can0 451#0901000064
(1616918958.299143) can0 400#01000C00
(1616918958.301475) can0 300#035A0B5A230023
(1616918958.301950) can0 665#0000000053175300
(1616918958.305044) can0 454#035A0B5A230023
(1616918958.313837) can0 200#5800A85B05000000
(1616918958.341734) can0 201#0000000062
(1616918958.347757) can0 401#489F000000000000
(1616918958.349602) can0 300#035A0B5A230023
(1616918958.353848) can0 203#0000000000000E00
(1616918958.355042) can0 454#035A0B5A230023
(1616918958.397075) can0 400#01000C00
(1616918958.398783) can0 300#035A0B5A230023
(1616918958.405031) can0 454#035A0B5A230023
(1616918958.441716) can0 201#0000000062
(1616918958.447636) can0 401#409F000000000000
(1616918958.449192) can0 300#035A0B5A230023
(1616918958.453837) can0 203#0000000000000E00
(1616918958.455024) can0 454#035A0B5A230023
(1616918958.496369) can0 400#01000C00
(1616918958.498050) can0 300#035A0B5A230023
(1616918958.505018) can0 454#035A0B5A230023
(1616918958.541714) can0 201#0000000062
(1616918958.547813) can0 401#409F000000000000
(1616918958.549373) can0 300#035A0B5A230023
(1616918958.553827) can0 203#0000000000000E00
(1616918958.555007) can0 454#035A0B5A230023
(1616918958.598915) can0 400#01000C00
(1616918958.600591) can0 300#035A0B5A230023
(1616918958.605006) can0 454#035A0B5A230023
(1616918958.641697) can0 201#0000000062
(1616918958.647316) can0 401#409F000000000000
(1616918958.649164) can0 300#035A0B5A230023
(1616918958.653818) can0 203#0000000000000E00
(1616918958.655005) can0 454#035A0B5A230023
(1616918958.655280) can0 450#1001
(1616918958.695601) can0 451#10010000236464
(1616918958.695899) can0 450#0601
(1616918958.698865) can0 400#01000C00
(1616918958.700559) can0 300#035A0B5A230023
(1616918958.704995) can0 454#035A0B5A230023
(1616918958.741694) can0 201#0000000062
(1616918958.746537) can0 451#0601000023
(1616918958.746848) can0 450#0801
(1616918958.749457) can0 400#00000400
(1616918958.751639) can0 300#035A0BA5230023
(1616918958.754982) can0 454#035A0BA5230023
(1616918958.795725) can0 451#0801000028
(1616918958.796034) can0 450#0901
(1616918958.804972) can0 454#035A0BA5230023
(1616918958.847359) can0 451#0901000064
(1616918958.854971) can0 454#035A0BA5230023
(1616918958.904977) can0 454#035A0BA5230023
(1616918958.954953) can0 454#035A0BA5230023
(1616918959.004965) can0 454#035A0BA5230023
(1616918959.054945) can0 454#035A0BA5230023
(1616918959.104937) can0 454#035A0BA5230023
(1616918959.154930) can0 454#035A0BA5230023
(1616918959.204923) can0 454#035A0BA5230023
(1616918959.205199) can0 450#1001
(1616918959.246416) can0 451#10010000236464
(1616918959.246712) can0 450#0601
(1616918959.254047) can0 201#0000000068
(1616918959.254916) can0 454#035A0BA5230023
(1616918959.266488) can0 203#000000000000FF0F
(1616918959.295963) can0 451#0601000023
