(1617279407.224747) can0 400#00000400
(1617279407.226487) can0 300#035A0B5A1E0023
(1617279407.274944) can0 401#75A1000000000000
(1617279407.276515) can0 300#035A0B5A1E0023
(1617279407.324449) can0 400#00000400
(1617279407.326138) can0 300#035A0B5A1E0023
(1617279407.326511) can0 201#0000000068
(1617279407.338941) can0 203#000000000000FF0F
(1617279407.351229) can0 204#0000000000000000
(1617279407.363528) can0 202#DA00000000000000
(1617279407.375786) can0 666#5207010152016226
(1617279407.377545) can0 401#75A1000000000000
(1617279407.379117) can0 300#035A0B5A1E0023
(1617279407.388101) can0 665#0000000053175300
(1617279407.400437) can0 200#0000000000000000
(1617279407.424502) can0 100#0322020200000000
(1617279407.427592) can0 400#00000400
(1617279407.428095) can0 101#101B620202433937
(1617279407.428665) can0 100#300000
(1617279407.429050) can0 201#0000000060
(1617279407.431174) can0 300#035A0B5A1E0023
(1617279407.432174) can0 101#213237322D313030
(1617279407.436286) can0 101#223230313230382D
(1617279407.440377) can0 101#23332D3531373700
(1617279407.441166) can0 100#0322020300000000
(1617279407.441666) can0 203#000000000000FF0F
(1617279407.444491) can0 101#1017620203393833
(1617279407.445062) can0 100#300000
(1617279407.448584) can0 101#2137303130323033
(1617279407.452676) can0 101#2231323230333031
(1617279407.456793) can0 101#23343631BFA60001
(1617279407.457568) can0 100#0322020400000000
(1617279407.460881) can0 101#1017620204575342
(1617279407.461452) can0 100#300000
(1617279407.464973) can0 101#2143363031313135
(1617279407.469096) can0 101#223531334E000000
(1617279407.473201) can0 101#23000000BFA60001
(1617279407.473980) can0 100#0322020700000000
(1617279407.477289) can0 101#05620207B80BFAB2
(1617279407.478067) can0 100#0322020600000000
(1617279407.480325) can0 401#75A1000000000000
(1617279407.481385) can0 101#05620206F508FAB2
(1617279407.482127) can0 300#035A0B5A1E0023
(1617279407.525337) can0 400#00000400
(1617279407.529808) can0 300#035A0B5A1E0023
(1617279407.531495) can0 201#0000000060
(1617279407.543918) can0 203#000000000000FF0F
(1617279407.575763) can0 401#75A1000000000000
(1617279407.577320) can0 300#035A0B5A1E0023
(1617279407.625635) can0 400#00000400
(1617279407.628532) can0 300#035A0B5A1E0023
(1617279407.634018) can0 201#0000000060
(1617279407.646441) can0 203#000000000000FF0F
(1617279407.676010) can0 401#75A1000000000000
(1617279407.677854) can0 300#035A0B5A1E0023
(1617279407.724927) can0 400#00000400
(1617279407.726648) can0 300#035A0B5A1E0023
(1617279407.736536) can0 201#0000000060
(1617279407.748942) can0 203#000000000000FF0F
(1617279407.775613) can0 401#67A1000000000000
(1617279407.777141) can0 300#035A0B5A1E0023
(1617279407.824206) can0 400#01000C00
(1617279407.825919) can0 300#035A0B5A1E0023
(1617279407.839038) can0 201#0000000060
(1617279407.851457) can0 203#000000000000FF0F
(1617279407.875780) can0 401#67A1000000000000
(1617279407.877331) can0 300#035A0B5A1E0023
(1617279407.926746) can0 400#01000C00
(1617279407.928453) can0 300#035A0B5A1E0023
(1617279407.941507) can0 201#0000000060
(1617279407.953907) can0 203#000000000000FF0F
(1617279407.975281) can0 401#67A1000000000000
(1617279407.977127) can0 300#035A0B5A1E0023
(1617279408.025070) can0 400#01000C00
(1617279408.026773) can0 300#035A0B5A1E0023
(1617279408.044005) can0 201#0000000060
(1617279408.056410) can0 203#000000000000FF0F
(1617279408.075848) can0 401#67A1000000000000
(1617279408.077399) can0 300#035A0B5A1E0023
(1617279408.125351) can0 400#01000C00
(1617279408.127826) can0 300#035A0B5A1E0023
(1617279408.146505) can0 201#0000000060
(1617279408.158914) can0 203#000000000000FF0F
(1617279408.177265) can0 401#67A1000000000000
(1617279408.178861) can0 300#035A0B5A1E0023
(1617279408.225933) can0 400#01000C00
(1617279408.227627) can0 300#035A0B5A1E0023
(1617279408.248911) can0 201#0000000060
(1617279408.261313) can0 203#000000000000FF0F
(1617279408.274961) can0 401#6FA1000000000000
(1617279408.276518) can0 300#035A0B5A1E0023
(1617279408.324992) can0 400#01000C00
(1617279408.326699) can0 300#035A0B5A1E0023
(1617279408.351412) can0 201#0000000060
(1617279408.363808) can0 203#000000000000FF0F
(1617279408.375636) can0 401#6FA1000000000000
(1617279408.376123) can0 204#0000000000000000
(1617279408.377161) can0 300#035A0B5A1E0023
(1617279408.388390) can0 202#DA1F0000D9A30400
(1617279408.426242) can0 400#01000C00
(1617279408.428573) can0 300#035A0B5A1E0023
(1617279408.453899) can0 201#0000000060
(1617279408.466320) can0 203#000000000000FF0F
(1617279408.476093) can0 401#6FA1000000000000
(1617279408.477657) can0 300#035A0B5A1E0023
(1617279408.525199) can0 400#01000C00
(1617279408.526900) can0 300#035A0B5A1E0023
(1617279408.556360) can0 201#0000000062
(1617279408.568771) can0 203#000000000000FF0F
(1617279408.575315) can0 401#6FA1000000000000
(1617279408.577166) can0 300#035A0B5A1E0023
(1617279408.614553) can0 450#1001
(1617279408.623692) can0 451#10010000235A64
(1617279408.623991) can0 450#0601
(1617279408.626778) can0 400#01000C00
(1617279408.628489) can0 300#035A0B5A1E0023
(1617279408.658861) can0 201#0000000062
(1617279408.671273) can0 203#000000000000FF0F
(1617279408.674238) can0 451#060100001E
(1617279408.674556) can0 450#0801
(1617279408.677313) can0 402#62000000ACC60500
(1617279408.724241) can0 451#0801000028
(1617279408.724550) can0 450#0901
(1617279408.727286) can0 400#01000C00
(1617279408.728990) can0 300#035A0B5A1E0023
(1617279408.761365) can0 201#0000000062
(1617279408.772990) can0 451#090100005F
(1617279408.773774) can0 203#000000000000FF0F
(1617279408.776278) can0 401#71A1000000000000
(1617279408.777849) can0 300#035A0B5A1E0023
(1617279408.814720) can0 454#35A0B5A1E0023
(1617279408.825402) can0 400#01000C00
(1617279408.827116) can0 300#035A0B5A1E0023
(1617279408.863861) can0 201#0000000062
(1617279408.864721) can0 454#035A0B5A1E0023
(1617279408.875413) can0 401#71A1000000000000
(1617279408.876280) can0 203#000000000000FF0F
(1617279408.877387) can0 300#035A0B5A1E0023
(1617279408.914718) can0 454#035A0B5A1E0023
(1617279408.925686) can0 400#01000C00
(1617279408.927373) can0 300#035A0B5A1E0023
(1617279408.964728) can0 454#035A0B5A1E0023
(1617279408.966354) can0 201#0000000062
(1617279408.977235) can0 401#71A1000000000000
(1617279408.978771) can0 203#000000000000FF0F
(1617279408.979210) can0 300#035A0B5A1E0023
(1617279409.014714) can0 454#035A0B5A1E0023
(1617279409.025189) can0 400#01000C00
(1617279409.027163) can0 300#035A0B5A1E0023
(1617279409.064730) can0 454#035A0B5A1E0023
(1617279409.068846) can0 201#0000000062
(1617279409.075579) can0 401#71A1000000000000
(1617279409.077122) can0 300#035A0B5A1E0023
(1617279409.081283) can0 203#000000000000FF0F
(1617279409.114717) can0 454#035A0B5A1E0023
(1617279409.125412) can0 400#01000C00
(1617279409.127133) can0 300#035A0B5A1E0023
(1617279409.164723) can0 454#035A0B5A1E0023
(1617279409.164988) can0 450#1001
(1617279409.171361) can0 201#0000000062
(1617279409.174102) can0 451#10010000235A64
(1617279409.174405) can0 450#0601
(1617279409.177859) can0 401#71A1000000000000
(1617279409.179428) can0 300#035A0B5A1E0023
(1617279409.183785) can0 203#000000000000FF0F
(1617279409.214716) can0 454#035A0B5A1E0023
(1617279409.223678) can0 451#060100001E
(1617279409.223989) can0 450#0801
(1617279409.227247) can0 400#01000C00
(1617279409.229054) can0 300#035A0B5A1E0023
(1617279409.264735) can0 454#035A0B5A1E0023
(1617279409.273861) can0 201#0000000062
(1617279409.274670) can0 451#0801000028
(1617279409.274972) can0 450#0901
(1617279409.277737) can0 401#6EA1000000000000
(1617279409.279594) can0 300#035A0B5A1E0023
(1617279409.286240) can0 203#000000000000FF0F
(1617279409.314713) can0 454#035A0B5A1E0023
(1617279409.323955) can0 451#090100005F
(1617279409.327273) can0 400#01000C00
(1617279409.329080) can0 300#035A0B5A1E0023
(1617279409.364717) can0 454#035A0B5A1E0023
(1617279409.375385) can0 401#6EA1000000000000
(1617279409.376314) can0 201#0000000062
(1617279409.376964) can0 300#035A0B5A1E0023
(1617279409.388742) can0 203#000000000000FF0F
(1617279409.401044) can0 204#0000000000000000
(1617279409.413305) can0 202#DA1F0000D9A30400
(1617279409.414711) can0 454#035A0B5A1E0023
(1617279409.425680) can0 400#01000C00
(1617279409.427345) can0 300#035A0B5A1E0023
(1617279409.464713) can0 454#035A0B5A1E0023
(1617279409.476580) can0 401#6EA1000000000000
(1617279409.478775) can0 300#035A0B5A1E0023
(1617279409.479150) can0 201#0000000062
(1617279409.491245) can0 203#000000000000FF0F
(1617279409.514715) can0 454#035A0B5A1E0023
(1617279409.525620) can0 400#01000C00
(1617279409.527299) can0 300#035A0B5A1E0023
(1617279409.564717) can0 454#035A0B5A1E0023
(1617279409.575615) can0 401#6EA1000000000000
(1617279409.577157) can0 300#035A0B5A1E0023
(1617279409.581315) can0 201#0000000062
(1617279409.593739) can0 203#000000000000FF0F
(1617279409.614714) can0 454#035A0B5A1E0023
(1617279409.625241) can0 400#01000C00
(1617279409.627214) can0 300#035A0B5A1E0023
(1617279409.664718) can0 454#035A0B5A1E0023
(1617279409.675534) can0 401#6EA1000000000000
(1617279409.677111) can0 300#035A0B5A1E0023
(1617279409.683818) can0 201#0000000062
(1617279409.696247) can0 203#000000000000FF0F
(1617279409.714714) can0 454#035A0B5A1E0023
(1617279409.714984) can0 450#1001
(1617279409.723621) can0 451#10010000235A64
(1617279409.723920) can0 450#0601
(1617279409.726489) can0 400#01000C00
(1617279409.728298) can0 300#035A0B5A1E0023
(1617279409.764715) can0 454#035A0B5A1E0023
(1617279409.774396) can0 451#060100001E
(1617279409.774705) can0 450#0801
(1617279409.777669) can0 401#6EA1000000000000
(1617279409.779243) can0 300#035A0B5A1E0023
(1617279409.786264) can0 201#0000000062
(1617279409.798703) can0 203#000000000000FF0F
(1617279409.814711) can0 454#035A0B5A1E0023
(1617279409.823730) can0 451#0801000028
(1617279409.824031) can0 450#0901
(1617279409.826938) can0 400#01000C00
(1617279409.828738) can0 300#035A0B5A1E0023
(1617279409.864713) can0 454#035A0B5A1E0023
(1617279409.874452) can0 451#090100005F
(1617279409.877445) can0 401#6EA1000000000000
(1617279409.879295) can0 300#035A0B5A1E0023
(1617279409.888779) can0 201#0000000062
(1617279409.901203) can0 203#000000000000FF0F
(1617279409.914717) can0 454#035A0B5A28000E
(1617279409.925255) can0 400#01000C00
(1617279409.927359) can0 300#035A0B5A1E0023
(1617279409.964718) can0 454#035A0B5A28000E
(1617279409.975945) can0 401#6EA1000000000000
(1617279409.977501) can0 300#035A0B5A28000E
(1617279409.991229) can0 201#0000000062
(1617279410.003664) can0 203#000000000000FF0F
(1617279410.014716) can0 454#035A0B5A28000E
(1617279410.027598) can0 400#01000C00
(1617279410.029591) can0 300#035A0B5A28005A
(1617279410.064726) can0 454#035A0B5A28005A
(1617279410.075345) can0 401#6EA1000000000000
(1617279410.077198) can0 300#035A0B5A28005A
(1617279410.093731) can0 201#0000000062
(1617279410.106166) can0 203#000000000000FF0F
(1617279410.114713) can0 454#035A0B5A28005A
(1617279410.125321) can0 400#01000C00
(1617279410.127019) can0 300#035A0B5A28005A
(1617279410.164715) can0 454#035A0B5A28005A
(1617279410.175632) can0 403#590000009CDC0500
(1617279410.196238) can0 201#0000000062
(1617279410.208650) can0 203#000000000000FF0F
(1617279410.214710) can0 454#035A0B5A28005A
(1617279410.224388) can0 400#01000C00
(1617279410.226101) can0 300#035A0B5A28005A
(1617279410.264717) can0 454#035A0B5A28005A
(1617279410.264991) can0 450#1001
(1617279410.275740) can0 451#10010000235A64
(1617279410.276024) can0 450#0601
(1617279410.278656) can0 401#6EA1000000000000
(1617279410.280218) can0 300#035A0B5A28005A
(1617279410.298751) can0 201#0000000062
(1617279410.311162) can0 203#0000000000001200
(1617279410.314712) can0 454#035A0B5A28005A
(1617279410.324473) can0 451#060100001E
(1617279410.324776) can0 450#0801
(1617279410.327494) can0 400#01000C00
(1617279410.329493) can0 300#035A0B5A28005A
(1617279410.364717) can0 454#035A0B5A28005A
(1617279410.374106) can0 451#0801000028
(1617279410.374412) can0 450#0901
(1617279410.377509) can0 401#6EA1000000000000
(1617279410.379066) can0 300#035A0B5A28005A
(1617279410.401140) can0 201#0000000062
(1617279410.413564) can0 203#0000000000001200
(1617279410.414712) can0 454#035A0B5A28005A
(1617279410.423598) can0 451#090100005F
(1617279410.425851) can0 204#0000000000000000
(1617279410.426921) can0 400#01000C00
(1617279410.428626) can0 300#035A0B5A28005A
(1617279410.438138) can0 202#DA1F0000D9A30400
(1617279410.450421) can0 666#5207010152016226
(1617279410.462738) can0 665#0000000053175300
(1617279410.464710) can0 454#035A0B5A28005A
(1617279410.475043) can0 200#6200ACC605000100
(1617279410.476064) can0 401#6EA1000000000000
(1617279410.477621) can0 300#035A0B5A28005A
(1617279410.503642) can0 201#0000000062
(1617279410.514711) can0 454#035A0B5A28005A
(1617279410.516053) can0 203#0000000000001200
(1617279410.526376) can0 400#01000C00
(1617279410.528840) can0 300#035A0B5A28005A
(1617279410.564717) can0 454#035A0B5A28005A
(1617279410.575822) can0 401#6EA1000000000000
(1617279410.577375) can0 300#035A0B5A28005A
(1617279410.606107) can0 201#0000000062
(1617279410.614707) can0 454#035A0B5A28005A
(1617279410.618518) can0 203#0000000000001200
(1617279410.625410) can0 400#01000C00
(1617279410.627228) can0 300#035A0B5A28005A
(1617279410.664742) can0 454#035A0B5A28005A
(1617279410.674725) can0 401#6EA1000000000000
(1617279410.676281) can0 300#035A0B5A28005A
(1617279410.708601) can0 201#0000000062
(1617279410.714706) can0 454#035A0B5A28005A
(1617279410.721019) can0 203#0000000000001200
(1617279410.725283) can0 400#01000C00
(1617279410.727093) can0 300#035A0B5A28005A
(1617279410.764715) can0 454#035A0B5A28005A
(1617279410.775703) can0 401#6EA1000000000000
(1617279410.777267) can0 300#035A0B5A28005A
(1617279410.811112) can0 201#0000000062
(1617279410.814714) can0 454#035A0B5A28005A
(1617279410.814989) can0 450#1001
(1617279410.823522) can0 203#0000000000001200
(1617279410.824323) can0 451#10010000235A64
(1617279410.824626) can0 450#0601
(1617279410.827572) can0 400#01000C00
(1617279410.829358) can0 300#035A0B5A28005A
(1617279410.864718) can0 454#035A0B5A28005A
(1617279410.873908) can0 451#060100001E
(1617279410.874215) can0 450#0801
(1617279410.877190) can0 401#6EA1000000000000
(1617279410.878744) can0 300#035A0B5A28005A
(1617279410.913562) can0 201#0000000062
(1617279410.914709) can0 454#035A0B5A28005A
(1617279410.924296) can0 451#0801000028
(1617279410.924598) can0 450#0901
(1617279410.925972) can0 203#0000000000001200
(1617279410.927328) can0 400#01000C00
(1617279410.929395) can0 300#035A0B5A28005A
(1617279410.964709) can0 454#035A0B5A28005A
(1617279410.974160) can0 451#090100005F
(1617279410.977641) can0 401#6EA1000000000000
(1617279410.979205) can0 300#035A0B5A28005A
(1617279411.014728) can0 454#035A0B5A28005A
(1617279411.016053) can0 201#0000000062
(1617279411.025673) can0 400#01000C00
(1617279411.027480) can0 300#035A0B5A28005A
(1617279411.028474) can0 203#0000000000001200
(1617279411.064717) can0 454#035A0B5A28005A
(1617279411.077325) can0 401#6EA1000000000000
(1617279411.079168) can0 300#035A0B5A28005A
(1617279411.114720) can0 454#035A0B5A5F000E
(1617279411.118506) can0 201#0000000062
(1617279411.125167) can0 400#01000C00
(1617279411.127280) can0 300#035A0B5A5F000E
(1617279411.130926) can0 203#0000000000001200
(1617279411.164711) can0 454#035A0B5A5F000E
(1617279411.175311) can0 401#70A1000000000000
(1617279411.176889) can0 300#035A0B5A5F0064
(1617279411.214705) can0 454#035A0B5A5F0064
(1617279411.221004) can0 201#0000000062
(1617279411.225617) can0 400#01000C00
(1617279411.227311) can0 300#035A0B5A5F0064
(1617279411.233427) can0 203#0000000000001200
(1617279411.264714) can0 454#035A0B5A5F0064
(1617279411.275537) can0 401#70A1000000000000
(1617279411.277864) can0 300#035A0B5A5F0064
(1617279411.314707) can0 454#035A0B5A5F0064
(1617279411.323513) can0 201#0000000062
(1617279411.326855) can0 400#01000C00
(1617279411.328645) can0 300#035A0B5A5F0064
(1617279411.335936) can0 203#0000000000001200
(1617279411.364704) can0 454#035A0B5A5F0064
(1617279411.364979) can0 450#1001
(1617279411.374644) can0 451#10010000235A64
(1617279411.374946) can0 450#0601
(1617279411.377661) can0 401#70A1000000000000
(1617279411.379507) can0 300#035A0B5A5F0064
(1617279411.414703) can0 454#035A0B5A5F0064
(1617279411.423933) can0 451#060100001E
(1617279411.424240) can0 450#0801
(1617279411.426011) can0 201#0000000062
(1617279411.427281) can0 400#01000C00
(1617279411.428986) can0 300#035A0B5A5F0064
(1617279411.438424) can0 203#0000000000001200
(1617279411.450741) can0 204#0000000000000000
(1617279411.463012) can0 202#DA1F0000D9A30400
(1617279411.464697) can0 454#035A0B5A5F0064
(1617279411.473805) can0 451#0801000028
(1617279411.474111) can0 450#0901
(1617279411.477279) can0 401#70A1000000000000
(1617279411.478828) can0 300#035A0B5A5F0064
(1617279411.514703) can0 454#035A0B5A5F0064
(1617279411.524345) can0 451#090100005F
(1617279411.527363) can0 400#01000C00
(1617279411.528502) can0 201#0000000062
(1617279411.529826) can0 300#035A0B5A5F0064
(1617279411.540941) can0 203#0000000000001200
(1617279411.564705) can0 454#035A0B5A5F0064
(1617279411.576631) can0 401#6DA1000000000000
(1617279411.578824) can0 300#035A0B5A5F0064
(1617279411.614703) can0 454#035A0B5A5F0064
(1617279411.625625) can0 400#01000C00
(1617279411.627391) can0 300#035A0B5A5F0064
(1617279411.631019) can0 201#0000000062
(1617279411.643441) can0 203#0000000000001200
(1617279411.664709) can0 454#035A0B5A5F0064
(1617279411.675835) can0 402#62000000ACC60500
(1617279411.714701) can0 454#035A0B5A5F0064
(1617279411.725224) can0 400#01000C00
(1617279411.727293) can0 300#035A0B5A5F0064
(1617279411.733517) can0 201#0000000062
(1617279411.745946) can0 203#0000000000001200
(1617279411.764701) can0 454#035A0B5A5F0064
(1617279411.775693) can0 401#6DA1000000000000
(1617279411.777261) can0 300#035A0B5A5F0064
(1617279411.814702) can0 454#035A0B5A5F0064
(1617279411.825583) can0 400#01000C00
(1617279411.827334) can0 300#035A0B5A5F0064
(1617279411.836025) can0 201#0000000062
(1617279411.848446) can0 203#0000000000001200
(1617279411.864702) can0 454#035A0B5A5F0064
(1617279411.875882) can0 401#6DA1000000000000
(1617279411.877738) can0 300#035A0B5A5F0064
(1617279411.914700) can0 454#035A0B5A5F0064
(1617279411.914976) can0 450#1001
(1617279411.923800) can0 451#10010000235A64
(1617279411.924099) can0 450#0601
(1617279411.927029) can0 400#01000C00
(1617279411.928740) can0 300#035A0B5A5F0064
(1617279411.938524) can0 201#0000000062
(1617279411.950950) can0 203#0000000000001200
(1617279411.964702) can0 454#035A0B5A5F0064
(1617279411.974440) can0 451#060100001E
(1617279411.974749) can0 450#0801
(1617279411.977526) can0 401#6DA1000000000000
(1617279411.979378) can0 300#035A0B5A5F0064
(1617279412.014699) can0 454#035A0B5A5F0064
(1617279412.024001) can0 451#0801000028
(1617279412.024290) can0 450#0901
(1617279412.027424) can0 400#01000C00
(1617279412.029136) can0 300#035A0B5A5F0064
(1617279412.041026) can0 201#0000000062
(1617279412.053451) can0 203#0000000000001200
(1617279412.064706) can0 454#035A0B5A5F0064
(1617279412.073889) can0 451#090100005F
(1617279412.077277) can0 401#6EA1000000000000
(1617279412.078841) can0 300#035A0B5A5F0064
(1617279412.114702) can0 454#035A0B5A5F0064
(1617279412.126444) can0 400#01000C00
(1617279412.128138) can0 300#035A0B5A5F0064
(1617279412.143530) can0 201#0000000062
(1617279412.155956) can0 203#0000000000001200
(1617279412.164696) can0 454#035A0B5A5F0064
(1617279412.175448) can0 401#6EA1000000000000
(1617279412.177306) can0 300#035A0B5A5F0064
(1617279412.214697) can0 454#035A0B5A5F0064
(1617279412.225418) can0 400#01000C00
(1617279412.227221) can0 300#035A0B5A5F0064
(1617279412.246032) can0 201#0000000062
(1617279412.258446) can0 203#0000000000001200
(1617279412.264698) can0 454#035A0B5A5F0064
(1617279412.275820) can0 401#6EA1000000000000
(1617279412.277385) can0 300#035A0B5A5F0064
(1617279412.314705) can0 454#035A0B5A5F0064
(1617279412.325260) can0 400#01000C00
(1617279412.327813) can0 300#035A0B5A5F0064
(1617279412.348527) can0 201#0000000062
(1617279412.360958) can0 203#0000000000001200
(1617279412.364695) can0 454#035A0B5A28000A
(1617279412.377059) can0 401#6EA1000000000000
(1617279412.378634) can0 300#035A0B5A28000A
(1617279412.414702) can0 454#035A0B5A28000A
(1617279412.426387) can0 400#01000C00
(1617279412.428098) can0 300#035A0B5A28005A
(1617279412.450913) can0 201#0000000062
(1617279412.463052) can0 203#0000000000001200
(1617279412.464700) can0 454#035A0B5A28005A
(1617279412.464978) can0 450#1001
(1617279412.474211) can0 451#10010000235A64
(1617279412.474522) can0 450#0601
(1617279412.475059) can0 204#0000000000000000
(1617279412.477636) can0 401#6EA1000000000000
(1617279412.479194) can0 300#035A0B5A28005A
(1617279412.487025) can0 202#DA1F0000D9A30400
(1617279412.514702) can0 454#035A0B5A28005A
(1617279412.523860) can0 451#060100001E
(1617279412.524168) can0 450#0801
(1617279412.527080) can0 400#01000C00
(1617279412.528797) can0 300#035A0B5A28005A
(1617279412.550933) can0 201#0000000062
(1617279412.563065) can0 203#0000000000001200
(1617279412.564697) can0 454#035A0B5A28005A
(1617279412.573743) can0 451#0801000028
(1617279412.574045) can0 450#0901
(1617279412.576880) can0 401#6EA1000000000000
(1617279412.578451) can0 300#035A0B5A28005A
(1617279412.614695) can0 454#035A0B5A28005A
(1617279412.625394) can0 451#090100005F
(1617279412.628878) can0 400#01000C00
(1617279412.630569) can0 300#035A0B5A28005A
(1617279412.650933) can0 201#0000000062
(1617279412.663057) can0 203#0000000000001200
(1617279412.664697) can0 454#035A0B5A28005A
(1617279412.675847) can0 401#6EA1000000000000
(1617279412.677418) can0 300#035A0B5A28005A
(1617279412.714699) can0 454#035A0B5A28005A
(1617279412.725652) can0 400#01000C00
(1617279412.727341) can0 300#035A0B5A28005A
(1617279412.750949) can0 201#0000000062
(1617279412.763061) can0 203#0000000000001200
(1617279412.764694) can0 454#035A0B5A28005A
(1617279412.775526) can0 401#6EA1000000000000
(1617279412.777377) can0 300#035A0B5A28005A
(1617279412.814697) can0 454#035A0B5A28005A
(1617279412.825576) can0 400#01000C00
(1617279412.827260) can0 300#035A0B5A28005A
(1617279412.850946) can0 201#0000000062
(1617279412.863062) can0 203#0000000000001200
(1617279412.864698) can0 454#035A0B5A28005A
(1617279412.875832) can0 401#6EA1000000000000
(1617279412.877397) can0 300#035A0B5A28005A
(1617279412.914697) can0 454#035A0B5A28005A
(1617279412.925770) can0 400#01000C00
(1617279412.927755) can0 300#035A0B5A28005A
(1617279412.950954) can0 201#0000000062
(1617279412.963060) can0 203#0000000000001200
(1617279412.964691) can0 454#035A0B5A28005A
(1617279412.975622) can0 401#6EA1000000000000
(1617279412.977158) can0 300#035A0B5A28005A
(1617279413.014703) can0 454#035A0B5A28005A
(1617279413.014973) can0 450#1001
(1617279413.024616) can0 451#10010000235A64
(1617279413.024914) can0 450#0601
(1617279413.027453) can0 400#01000C00
(1617279413.029436) can0 300#035A0B5A28005A
(1617279413.050955) can0 201#0000000062
(1617279413.063065) can0 203#0000000000001200
(1617279413.064697) can0 454#035A0B5A28005A
(1617279413.073411) can0 451#060100001E
(1617279413.073721) can0 450#0801
(1617279413.076559) can0 401#6EA1000000000000
(1617279413.078522) can0 300#035A0B5A28005A
(1617279413.114699) can0 454#035A0B5A28005A
(1617279413.123938) can0 451#0801000028
(1617279413.124240) can0 450#0901
(1617279413.127614) can0 400#01000C00
(1617279413.129317) can0 300#035A0B5A28005A
(1617279413.151009) can0 201#0000000062
(1617279413.163116) can0 203#0000000000001200
(1617279413.164693) can0 454#035A0B5A28005A
(1617279413.175932) can0 451#090100005F
(1617279413.179014) can0 403#590000009CDC0500
(1617279413.214697) can0 454#035A0B5A28005A
(1617279413.225454) can0 400#01000C00
(1617279413.227444) can0 300#035A0B5A28005A
(1617279413.251007) can0 201#0000000062
(1617279413.263122) can0 203#0000000000001200
(1617279413.264701) can0 454#035A0B5A28005A
(1617279413.275701) can0 401#6EA1000000000000
(1617279413.277269) can0 300#035A0B5A28005A
(1617279413.314696) can0 454#035A0B5A28005A
(1617279413.325624) can0 400#01000C00
(1617279413.327316) can0 300#035A0B5A28005A
(1617279413.351012) can0 201#0000000062
(1617279413.363123) can0 203#0000000000001200
(1617279413.364692) can0 454#035A0B5A28005A
(1617279413.375610) can0 401#6EA1000000000000
(1617279413.377906) can0 300#035A0B5A28005A
(1617279413.414696) can0 454#035A0B5A28005A
(1617279413.426972) can0 400#01000C00
(1617279413.428668) can0 300#035A0B5A28005A
(1617279413.451018) can0 201#0000000062
(1617279413.463128) can0 203#0000000000001200
(1617279413.464689) can0 454#035A0B5A28005A
(1617279413.475126) can0 204#0000000000000000
(1617279413.476238) can0 401#72A1000000000000
(1617279413.477793) can0 300#035A0B5A28005A
(1617279413.487104) can0 202#DA1F0000D9A30400
(1617279413.499076) can0 666#5207010152016226
(1617279413.511092) can0 665#0000000053175300
(1617279413.514693) can0 454#035A0B5A28005A
(1617279413.523108) can0 200#6200ACC605000200
(1617279413.524949) can0 400#01000C00
(1617279413.526665) can0 300#035A0B5A28005A
(1617279413.551015) can0 201#0000000062
(1617279413.563130) can0 203#0000000000001200
(1617279413.564689) can0 454#035A0B5A1E000A
(1617279413.564967) can0 450#1001
(1617279413.573970) can0 451#10010000235A64
(1617279413.574269) can0 450#0601
(1617279413.577416) can0 401#72A1000000000000
(1617279413.578979) can0 300#035A0B5A28005A
(1617279413.614691) can0 454#035A0B5A1E000A
(1617279413.624637) can0 451#060100001E
(1617279413.624944) can0 450#0801
(1617279413.627472) can0 400#01000C00
(1617279413.629935) can0 300#035A0B5A1E000A
(1617279413.651021) can0 201#0000000062
(1617279413.663120) can0 203#0000000000001200
(1617279413.664691) can0 454#035A0B5A1E000A
(1617279413.675762) can0 451#0801000028
(1617279413.676065) can0 450#0901
(1617279413.679490) can0 401#72A1000000000000
(1617279413.681046) can0 300#035A0B5A1E0023
(1617279413.714686) can0 454#035A0B5A1E0023
(1617279413.724357) can0 451#090100005F
(1617279413.727476) can0 400#01000C00
(1617279413.729177) can0 300#035A0B5A1E0023
(1617279413.750997) can0 201#0000000062
(1617279413.763124) can0 203#0000000000001200
(1617279413.764681) can0 454#035A0B5A1E0023
(1617279413.775915) can0 401#72A1000000000000
(1617279413.777482) can0 300#035A0B5A1E0023
(1617279413.814685) can0 454#035A0B5A1E0023
(1617279413.825472) can0 400#01000C00
(1617279413.827469) can0 300#035A0B5A1E0023
(1617279413.851001) can0 201#0000000062
(1617279413.863137) can0 203#0000000000001200
(1617279413.864682) can0 454#035A0B5A1E0023
(1617279413.875711) can0 401#72A1000000000000
(1617279413.877278) can0 300#035A0B5A1E0023
(1617279413.914684) can0 454#035A0B5A1E0023
(1617279413.925802) can0 400#01000C00
(1617279413.927508) can0 300#035A0B5A1E0023
(1617279413.951014) can0 201#0000000062
(1617279413.963137) can0 203#0000000000001200
(1617279413.964674) can0 454#035A0B5A1E0023
(1617279413.975966) can0 401#6AA1000000000000
(1617279413.977805) can0 300#035A0B5A1E0023
(1617279414.014687) can0 454#035A0B5A1E0023
(1617279414.024518) can0 400#01000C00
(1617279414.026563) can0 300#035A0B5A1E0023
(1617279414.051018) can0 201#0000000062
(1617279414.063138) can0 203#0000000000001200
(1617279414.064687) can0 454#035A0B5A1E0023
(1617279414.076045) can0 401#6AA1000000000000
(1617279414.077598) can0 300#035A0B5A1E0023
(1617279414.114679) can0 454#035A0B5A1E0023
(1617279414.114955) can0 450#1001
(1617279414.124438) can0 451#10010000235A64
(1617279414.124738) can0 450#0601
(1617279414.127670) can0 400#01000C00
(1617279414.129371) can0 300#035A0B5A1E0023
(1617279414.151018) can0 201#0000000062
(1617279414.163142) can0 203#0000000000001200
(1617279414.164680) can0 454#035A0B5A1E0023
(1617279414.173921) can0 451#060100001E
(1617279414.174229) can0 450#0801
(1617279414.177773) can0 401#6AA1000000000000
(1617279414.179321) can0 300#035A0B5A1E0023
(1617279414.214679) can0 454#035A0B5A1E0023
(1617279414.226222) can0 451#0801000028
(1617279414.226521) can0 450#0901
(1617279414.229344) can0 400#01000C00
(1617279414.231048) can0 300#035A0B5A1E0023
(1617279414.251025) can0 201#0000000062
(1617279414.263144) can0 203#0000000000001200
(1617279414.264676) can0 454#035A0B5A1E0023
(1617279414.274190) can0 451#090100005F
(1617279414.277568) can0 401#6AA1000000000000
(1617279414.279118) can0 300#035A0B5A1E0023
(1617279414.314682) can0 454#035A0B5A1E0023
(1617279414.325776) can0 400#01000C00
(1617279414.327492) can0 300#035A0B5A1E0023
(1617279414.351021) can0 201#0000000062
(1617279414.363148) can0 203#0000000000001200
(1617279414.364678) can0 454#035A0B5A1E0023
(1617279414.375891) can0 401#6AA1000000000000
(1617279414.377456) can0 300#035A0B5A1E0023
(1617279414.414681) can0 454#035A0B5A1E0023
(1617279414.425618) can0 400#01000C00
(1617279414.428115) can0 300#035A0B5A1E0023
(1617279414.451023) can0 201#0000000062
(1617279414.463150) can0 203#0000000000001200
(1617279414.464678) can0 454#035A0B5A1E0023
(1617279414.475151) can0 204#0000000000000000
(1617279414.476034) can0 401#6DA1000000000000
(1617279414.477595) can0 300#035A0B5A1E0023
(1617279414.487120) can0 202#DA1F0000D9A30400
(1617279414.514678) can0 454#035A0B5A1E0023
(1617279414.526366) can0 400#01000C00
(1617279414.528076) can0 300#035A0B5A1E0023
(1617279414.551028) can0 201#0000000062
(1617279414.563153) can0 203#0000000000001200
(1617279414.564677) can0 454#035A0B5A1E0023
(1617279414.575654) can0 401#6DA1000000000000
(1617279414.577599) can0 300#035A0B5A1E0023
(1617279414.614679) can0 454#035A0B5A1E0023
(1617279414.625629) can0 400#01000C00
(1617279414.627306) can0 300#035A0B5A1E0023
(1617279414.651021) can0 201#0000000062
(1617279414.663144) can0 203#0000000000001200
(1617279414.664674) can0 454#035A0B5A1E0023
(1617279414.664952) can0 450#1001
(1617279414.674711) can0 451#10010000235A64
(1617279414.675010) can0 450#0601
(1617279414.677793) can0 402#62000000ACC60500
(1617279414.714682) can0 454#035A0B5A1E0023
(1617279414.725526) can0 451#060100001E
(1617279414.725837) can0 450#0801
(1617279414.728993) can0 400#01000C00
(1617279414.730705) can0 300#035A0B5A1E0023
(1617279414.751038) can0 201#0000000062
(1617279414.763158) can0 203#0000000000001200
(1617279414.764674) can0 454#035A0B5A1E0023
(1617279414.774313) can0 451#0801000028
(1617279414.774616) can0 450#0901
(1617279414.777692) can0 401#6DA1000000000000
(1617279414.779252) can0 300#035A0B5A1E0023
(1617279414.814676) can0 454#035A0B5A1E0023
(1617279414.824618) can0 451#090100005F
(1617279414.827546) can0 400#01000C00
(1617279414.829645) can0 300#035A0B5A1E0023
(1617279414.851038) can0 201#0000000062
(1617279414.863159) can0 203#0000000000001200
(1617279414.864679) can0 454#035A0B5A1E0023
(1617279414.875729) can0 401#6DA1000000000000
(1617279414.877586) can0 300#035A0B5A1E0023
(1617279414.914677) can0 454#035A0B5A1E0023
(1617279414.925787) can0 400#01000C00
(1617279414.927551) can0 300#035A0B5A1E0023
(1617279414.951036) can0 201#0000000062
(1617279414.963163) can0 203#0000000000001200
(1617279414.964668) can0 454#035A0B5A1E0023
(1617279414.975288) can0 401#6EA1000000000000
(1617279414.976859) can0 300#035A0B5A1E0023
(1617279415.014675) can0 454#035A0B5A1E0023
(1617279415.025985) can0 400#01000C00
(1617279415.028028) can0 300#035A0B5A1E0023
(1617279415.051044) can0 201#0000000062
(1617279415.063163) can0 203#0000000000001200
(1617279415.064677) can0 454#035A0B5A1E0023
(1617279415.075750) can0 401#6EA1000000000000
(1617279415.077323) can0 300#035A0B5A1E0023
(1617279415.114677) can0 454#035A0B5A1E0023
(1617279415.126028) can0 400#01000C00
(1617279415.127775) can0 300#035A0B5A1E0023
(1617279415.151044) can0 201#0000000062
(1617279415.163165) can0 203#0000000000001200
(1617279415.164675) can0 454#035A0B5A1E0023
(1617279415.175739) can0 401#6EA1000000000000
(1617279415.177711) can0 300#035A0B5A1E0023
(1617279415.214674) can0 454#035A0B5A1E0023
(1617279415.214945) can0 450#1001
(1617279415.224277) can0 451#10010000235A64
(1617279415.224579) can0 450#0601
(1617279415.227886) can0 400#01000C00
(1617279415.229585) can0 300#035A0B5A1E0023
(1617279415.251036) can0 201#0000000062
(1617279415.263168) can0 203#0000000000001200
(1617279415.264679) can0 454#035A0B5A1E0023
(1617279415.276132) can0 451#060100001E
(1617279415.276444) can0 450#0801
(1617279415.279624) can0 401#6EA1000000000000
(1617279415.281258) can0 300#035A0B5A1E0023
(1617279415.314676) can0 454#035A0B5A1E0023
(1617279415.324905) can0 451#0801000028
(1617279415.325208) can0 450#0901
(1617279415.327570) can0 400#00000400
(1617279415.329256) can0 300#035A0BA51E0023
(1617279415.364685) can0 454#035A0BA51E0023
(1617279415.374015) can0 451#090100005F
(1617279415.414676) can0 454#035A0BA51E0023
(1617279415.464687) can0 454#035A0BA51E0023
(1617279415.514677) can0 454#035A0BA51E0023
(1617279415.564686) can0 454#035A0BA51E0023
(1617279415.614675) can0 454#035A0BA51E0023
(1617279415.664692) can0 454#035A0BA51E0023
(1617279415.714684) can0 454#035A0BA51E0023
(1617279415.764685) can0 454#035A0BA51E0023
(1617279415.764952) can0 450#1001
(1617279415.776086) can0 451#10010000235A64
(1617279415.776378) can0 450#0601
(1617279415.814677) can0 454#035A0BA51E0023
(1617279415.825062) can0 451#060100001E
(1617279415.825369) can0 450#0801
(1617279415.863730) can0 201#0000000068
(1617279415.864667) can0 454#035A0BA51E0023
(1617279415.875125) can0 451#0801000028
(1617279415.876158) can0 203#000000000000FF0F
